
**** 08/29/23 21:46:30 ***** PSpice 22.1.0 (30 July 2023) ***** ID# 0 ********

 ** Profile: "SCHEMATIC1-optest1"  [ C:\Users\JB\Desktop\Code\PSpice\homework1-pspicefiles\schematic1\optest1.sim ] 


 ****     CIRCUIT DESCRIPTION


******************************************************************************




** Creating circuit file "optest1.cir" 
** WARNING: THIS AUTOMATICALLY GENERATED FILE MAY BE OVERWRITTEN BY SUBSEQUENT SIMULATIONS

*Libraries: 
* Profile Libraries :
* Local Libraries :
* From [PSPICE NETLIST] section of C:\SPB_DATA\cdssetup\OrCAD_PSpice\22.1.0\PSpice.ini file:
.lib "nom.lib" 

*Analysis directives: 
.TRAN  0 0.3ms 0 1us 
.OPTIONS ADVCONV
.PROBE64 V(alias(*)) I(alias(*)) W(alias(*)) D(alias(*)) NOISE(alias(*)) 
.INC "..\SCHEMATIC1.net" 



**** INCLUDING SCHEMATIC1.net ****
* source HOMEWORK1
X_U1         0 N00248 V+ V- VOUT uA741
V_V1         VIN 0  AC 1
+SIN 0 0.94V 10e3 0 0 0
R_Rs         VIN N00248  1k TC=0,0 
R_Rf         N00248 VOUT  10k TC=0,0 
V_V2         0 V- 10Vdc
V_V3         V+ 0 10Vdc

**** RESUMING optest1.cir ****
.END

**** 08/29/23 21:46:30 ***** PSpice 22.1.0 (30 July 2023) ***** ID# 0 ********

 ** Profile: "SCHEMATIC1-optest1"  [ C:\Users\JB\Desktop\Code\PSpice\homework1-pspicefiles\schematic1\optest1.sim ] 


 ****     Diode MODEL PARAMETERS


******************************************************************************




               X_U1.dx         X_U1.dy         
          IS  800.000000E-18  800.000000E-18 
          RS    1               1.000000E-03 
         CJO                   10.000000E-12 


**** 08/29/23 21:46:30 ***** PSpice 22.1.0 (30 July 2023) ***** ID# 0 ********

 ** Profile: "SCHEMATIC1-optest1"  [ C:\Users\JB\Desktop\Code\PSpice\homework1-pspicefiles\schematic1\optest1.sim ] 


 ****     BJT MODEL PARAMETERS


******************************************************************************




               X_U1.qx         
               NPN             
       LEVEL    1            
          IS  800.000000E-18 
          BF   93.75         
          NF    1            
          BR    1            
          NR    1            
         ISS    0            
          RE    0            
          RC    0            
         CJE    0            
         VJE     .75         
         CJC    0            
         VJC     .75         
         MJC     .33         
        XCJC    1            
         CJS    0            
         VJS     .75         
          KF    0            
          AF    1            
          CN    2.42         
           D     .87         


**** 08/29/23 21:46:30 ***** PSpice 22.1.0 (30 July 2023) ***** ID# 0 ********

 ** Profile: "SCHEMATIC1-optest1"  [ C:\Users\JB\Desktop\Code\PSpice\homework1-pspicefiles\schematic1\optest1.sim ] 


 ****     INITIAL TRANSIENT SOLUTION       TEMPERATURE =   27.000 DEG C


******************************************************************************



 NODE   VOLTAGE     NODE   VOLTAGE     NODE   VOLTAGE     NODE   VOLTAGE


(   V+)   10.0000  (   V-)  -10.0000  (  VIN)    0.0000  ( VOUT)     .0010      

(N00248) 19.25E-06 (X_U1.6)-96.90E-09 (X_U1.7)     .0010 (X_U1.8)     .0010     

(X_U1.9)    0.0000 (X_U1.10)    -.6077                   (X_U1.11)    9.9603    

(X_U1.12)    9.9603                   (X_U1.13)    -.5938                       

(X_U1.14)    -.5938                   (X_U1.53)    9.0000                       

(X_U1.54)   -9.0000                   (X_U1.90) 99.01E-06                       

(X_U1.91)   40.0000                   (X_U1.92)  -40.0000                       

(X_U1.99)    0.0000                   




    VOLTAGE SOURCE CURRENTS
    NAME         CURRENT

    V_V1         1.925E-08
    V_V2        -1.116E-03
    V_V3        -1.116E-03
    X_U1.vb     -9.690E-13
    X_U1.vc      9.000E-12
    X_U1.ve      1.023E-11
    X_U1.vlim    9.901E-08
    X_U1.vlp    -4.000E-11
    X_U1.vln    -4.000E-11

    TOTAL POWER DISSIPATION   2.23E-02  WATTS



          JOB CONCLUDED

**** 08/29/23 21:46:30 ***** PSpice 22.1.0 (30 July 2023) ***** ID# 0 ********

 ** Profile: "SCHEMATIC1-optest1"  [ C:\Users\JB\Desktop\Code\PSpice\homework1-pspicefiles\schematic1\optest1.sim ] 


 ****     JOB STATISTICS SUMMARY


******************************************************************************



  Total job time (using Solver 1)   =         .06
